Script started on 2022-02-06 10:22:02+08:00 [TERM="xterm-256color" TTY="/dev/pts/1" COLUMNS="80" LINES="38"]
]0;luppy@pinebook:~/lupyuen.github.io[?2004h[luppy@pinebook lupyuen.github.io]$ exitsudo screen /dev/ttyACM0 
[?2004l[sudo] password for luppy: 
[!p[?3;4l[4l>[?1049h[22;0;0t[4l[?1h=[0m(B[1;38r[H[2J[H[2JHiZ>
Syntax error at char 1
HiZ>m
1. HiZ
2. 1-WIRE
3. UART
4. I2C
5. SPI
6. 2WIRE
7. 3WIRE
8. KEYB
9. LCD
10. PIC
11. DIO
x. exit(without change)

(1)>3
Set serial port speed: (bps)
 1. 300
 2. 1200
 3. 2400
 4. 4800
 5. 9600
 6. 19200
 7. 38400
 8. 57600
 9. 115200
10. Input Custom BAUD
11. Auto-Baud Detection (Activity Required)

(1)>5
Data bits and parity:
 1. 8, NONE *default 
 2. 8, EVEN 
 3. 8, ODD 
 4. 9, NONE
(1)>
Stop bits:
 1. 1 *default
 2. 2
(1)>
Receive polarity:
 1. Idle 1 *default
 2. Idle 0
(1)>
Select output type:
 1. Open drain (H=Hi-Z, L=GND)
 2. Normal (H=3.3V, L=GND)

(1)>
Clutch disengaged!!!
To finish setup, start up the power supplies with command 'W'

Ready
UART>W
POWER SUPPLIES ON
Clutch engaged!!!
UART>{
UART LIVE DISPLAY, } TO STOP
UART>
READ: -f 0x00
UART>
READ: -f 0x00
UART>
READ: -f 0x00
UART>
READ: 0x16
UART>
READ: 0x11
UART>
READ: 0x0B
UART>
READ: 0x00
UART>
READ: 0x00
UART>
READ: 0x00
UART>
READ: 0x3A
UART>
READ: 0x00
UART>
READ: 0x00
UART>
READ: 0x03
UART>
READ: 0x3B
UART>
READ: 0x00
UART>
READ: 0x00
UART>
READ: 0x00
UART>
READ: 0x38
UART>
READ: 0x01
UART>
READ: 0x00
UART>
READ: 0x00
UART>
READ: 0x00
UART>
READ: 0x1D
UART>
READ: 0x16
UART>
READ: 0x11
UART>
READ: 0x0B
UART>
READ: 0x00
UART>
READ: 0x00
UART>
READ: 0x00
UART>
READ: 0x3B
UART>
READ: 0x00
UART>
READ: 0x00
UART>
READ: 0x03
UART>
READ: 0x3F
UART>
READ: 0x00
UART>
READ: 0x00
UART>
READ: 0x00
UART>
READ: 0x39
UART>
READ: 0x01
UART>
READ: 0x00
UART>
READ: 0x00
UART>
READ: 0x00
UART>
READ: 0x17
UART>
READ: 0x16
UART>
READ: 0x11
UART>
READ: 0x0B
UART>
READ: 0x00
UART>
READ: 0x00
UART>
READ: 0x00
UART>
READ: 0x33
UART>
READ: 0x00
UART>
READ: 0x00
UART>
READ: 0x03
UART>
READ: 0x29
UART>
READ: 0x00
UART>
READ: 0x00
UART>
READ: 0x00
UART>
READ: 0x31
UART>
READ: 0x01
UART>
READ: 0x00
UART>
READ: 0x00
UART>
READ: 0x00
UART>
READ: 0x3D
UART>
READ: 0x16
UART>
READ: 0x11
UART>
READ: 0x0B
UART>
READ: 0x00
UART>
READ: 0x00
UART>
READ: 0x00
UART>
READ: 0x33
UART>
READ: 0x00
UART>
READ: 0x00
UART>
READ: 0x03
UART>
READ: 0x2A
UART>
READ: 0x00
UART>
READ: 0x00
UART>
READ: 0x00
UART>
READ: 0x31
UART>
READ: 0x01
UART>
READ: 0x00
UART>
READ: 0x00
UART>
READ: 0x00
UART>
READ: 0x3C
UART>
READ: 0x16
UART>
READ: 0x11
UART>
READ: 0x0B
UART>
READ: 0x00
UART>
READ: 0x00
UART>
READ: 0x00
UART>
READ: 0x33
UART>
READ: 0x00
UART>
READ: 0x00
UART>
READ: 0x03
UART>
READ: 0x2A
UART>
READ: 0x00
UART>
READ: 0x00
UART>
READ: 0x00
UART>
READ: 0x31
UART>
READ: 0x01
UART>
READ: 0x00
UART>
READ: 0x00
UART>
READ: 0x00
UART>
READ: 0x3C
UART>
READ: 0x16
UART>
READ: 0x11
UART>
READ: 0x0B
UART>
READ: 0x00
UART>
READ: 0x00
UART>
READ: 0x00
UART>
READ: 0x33
UART>
READ: 0x00
UART>
READ: 0x00
UART>
READ: 0x03
UART>
READ: 0x2A
UART>
READ: 0x00
UART>
READ: 0x00
UART>
READ: 0x00
UART>
READ: 0x31
UART>
READ: 0x01
UART>
READ: 0x00
UART>
READ: 0x00
UART>
READ: 0x00
UART>
READ: 0x3C
UART>
READ: 0x16
UART>
READ: 0x11
UART>
READ: 0x0B
UART>
READ: 0x00
UART>
READ: 0x00
UART>
READ: 0x00
UART>
READ: 0x34
UART>
READ: 0x00
UART>
READ: 0x00
UART>
READ: 0x03
UART>
READ: 0x2B
UART>
READ: 0x00
UART>
READ: 0x00
UART>
READ: 0x00
UART>
READ: 0x32
UART>
READ: 0x01
UART>
READ: 0x00
UART>
READ: 0x00
UART>
READ: 0x00
UART>
READ: 0x39
UART>
READ: 0x16
UART>
READ: 0x11
UART>
READ: 0x0B
UART>
READ: 0x00
UART>
READ: 0x00
UART>
READ: 0x00
UART>
READ: 0x34
UART>
READ: 0x00
UART>
READ: 0x00
UART>
READ: 0x03
UART>
READ: 0x2C
UART>
READ: 0x00
UART>
READ: 0x00
UART>
READ: 0x00
UART>
READ: 0x32
UART>
READ: 0x01
UART>
READ: 0x00
UART>
READ: 0x00
UART>
READ: 0x00
UART>
READ: 0x38
UART>
READ: 0x16
UART>
READ: 0x11
UART>
READ: 0x0B
UART>
READ: 0x00
UART>
READ: 0x00
UART>
READ: 0x00
UART>
READ: 0x35
UART>
READ: 0x00
UART>
READ: 0x00
UART>
READ: 0x03
UART>
READ: 0x2D
UART>
READ: 0x00
UART>
READ: 0x00
UART>
READ: 0x00
UART>
READ: 0x33
UART>
READ: 0x01
UART>
READ: 0x00
UART>
READ: 0x00
UART>
READ: 0x00
UART>
READ: 0x35
UART>
READ: 0x16
UART>
READ: 0x11
UART>
READ: 0x0B
UART>
READ: 0x00
UART>
READ: 0x00
UART>
READ: 0x00
UART>
READ: 0x35
UART>
READ: 0x00
UART>
READ: 0x00
UART>
READ: 0x03
UART>
READ: 0x2D
UART>
READ: 0x00
UART>
READ: 0x00
UART>
READ: 0x00
UART>
READ: 0x33
UART>
READ: 0x01
UART>
READ: 0x00
UART>
READ: 0x00
UART>
READ: 0x00
UART>
READ: 0x35
UART>
READ: 0x16
UART>
READ: 0x11
UART>
READ: 0x0B
UART>
READ: 0x00
UART>
READ: 0x00
UART>
READ: 0x00
UART>
READ: 0x35
UART>
READ: 0x00
UART>
READ: 0x00
UART>
READ: 0x03
UART>
READ: 0x2E
UART>
READ: 0x00
UART>
READ: 0x00
UART>
READ: 0x00
UART>
READ: 0x33
UART>
READ: 0x01
UART>
READ: 0x00
UART>
READ: 0x00
UART>
READ: 0x00
UART>
READ: 0x34
UART>
READ: 0x16
UART>
READ: 0x11
UART>
READ: 0x0B
UART>
READ: 0x00
UART>
READ: 0x00
UART>
READ: 0x00
UART>
READ: 0x35
UART>
READ: 0x00
UART>
READ: 0x00
UART>
READ: 0x03
UART>
READ: 0x2E
UART>
READ: 0x00
UART>
READ: 0x00
UART>
READ: 0x00
UART>
READ: 0x33
UART>
READ: 0x01
UART>
READ: 0x00
UART>
READ: 0x00
UART>
READ: 0x00
UART>
READ: 0x34
UART>
READ: 0x16
UART>
READ: 0x11
UART>
READ: 0x0B
UART>
READ: 0x00
UART>
READ: 0x00
UART>
READ: 0x00
UART>
READ: 0x35
UART>
READ: 0x00
UART>
READ: 0x00
UART>
READ: 0x03
UART>
READ: 0x2F
UART>
READ: 0x00
UART>
READ: 0x00
UART>
READ: 0x00
UART>
READ: 0x33
UART>
READ: 0x01
UART>
READ: 0x00
UART>
READ: 0x00
UART>
READ: 0x00
UART>
READ: 0x33
UART>
READ: 0x16
UART>
READ: 0x11
UART>
READ: 0x0B
UART>
READ: 0x00
UART>
READ: 0x00
UART>
READ: 0x00
UART>
READ: 0x35
UART>
READ: 0x00
UART>
READ: 0x00
UART>
READ: 0x03
UART>
READ: 0x2F
UART>
READ: 0x00
UART>
READ: 0x00
UART>
READ: 0x00
UART>
READ: 0x33
UART>
READ: 0x01
UART>
READ: 0x00
UART>
READ: 0x00
UART>
READ: 0x00
UART>
READ: 0x33
UART>
READ: 0x16
UART>
READ: 0x11
UART>
READ: 0x0B
UART>
READ: 0x00
UART>
READ: 0x00
UART>
READ: 0x00
UART>
READ: 0x36
UART>
READ: 0x00
UART>
READ: 0x00
UART>
READ: 0x03
UART>
READ: 0x31
UART>
READ: 0x00
UART>
READ: 0x00
UART>
READ: 0x00
UART>
READ: 0x34
UART>
READ: 0x01
UART>
READ: 0x00
UART>
READ: 0x00
UART>
READ: 0x00
UART>
READ: 0x2F
UART>
READ: 0x16
UART>
READ: 0x11
UART>
READ: 0x0B
UART>
READ: 0x00
UART>
READ: 0x00
UART>
READ: 0x00
UART>
READ: 0x36
UART>
READ: 0x00
UART>
READ: 0x00
UART>
READ: 0x03
UART>
READ: 0x31
UART>
READ: 0x00
UART>
READ: 0x00
UART>
READ: 0x00
UART>
READ: 0x34
UART>
READ: 0x01
UART>
READ: 0x00
UART>
READ: 0x00
UART>
READ: 0x00
UART>
READ: 0x2F
UART>
READ: 0x16
UART>
READ: 0x11
UART>
READ: 0x0B
UART>
READ: 0x00
UART>
READ: 0x00
UART>
READ: 0x00
UART>
READ: 0x36
UART>
READ: 0x00
UART>
READ: 0x00
UART>
READ: 0x03
UART>
READ: 0x32
UART>
READ: 0x00
UART>
READ: 0x00
UART>
READ: 0x00
UART>
READ: 0x34
UART>
READ: 0x01
UART>
READ: 0x00
UART>
READ: 0x00
UART>
READ: 0x00
UART>
READ: 0x2E
UART>
READ: 0x16
UART>
READ: 0x11
UART>
READ: 0x0B
UART>
READ: 0x00
UART>
READ: 0x00
UART>
READ: 0x00
UART>
READ: 0x37
UART>
READ: 0x00
UART>
READ: 0x00
UART>
READ: 0x03
UART>
READ: 0x33
UART>
READ: 0x00
UART>
READ: 0x00
UART>
READ: 0x00
UART>
READ: 0x35
UART>
READ: 0x01
UART>
READ: 0x00
UART>
READ: 0x00
UART>
READ: 0x00
UART>
READ: 0x2B
UART>
READ: 0x16
UART>
READ: 0x11
UART>
READ: 0x0B
UART>
READ: 0x00
UART>
READ: 0x00
UART>
READ: 0x00
UART>
READ: 0x37
UART>
READ: 0x00
UART>
READ: 0x00
UART>
READ: 0x03
UART>
READ: 0x33
UART>
READ: 0x00
UART>
READ: 0x00
UART>
READ: 0x00
UART>
READ: 0x35
UART>
READ: 0x01
UART>
READ: 0x00
UART>
READ: 0x00
UART>
READ: 0x00
UART>
READ: 0x2B
UART>
READ: 0x16
UART>
READ: 0x11
UART>
READ: 0x0B
UART>
READ: 0x00
UART>
READ: 0x00
UART>
READ: 0x00
UART>
READ: 0x37
UART>
READ: 0x00
UART>
READ: 0x00
UART>
READ: 0x03
UART>
READ: 0x33
UART>
READ: 0x00
UART>
READ: 0x00
UART>
READ: 0x00
UART>
READ: 0x35
UART>
READ: 0x01
UART>
READ: 0x00
UART>
READ: 0x00
UART>
READ: 0x00
UART>
READ: 0x2B
UART>
READ: 0x16
UART>
READ: 0x11
UART>
READ: 0x0B
UART>
READ: 0x00
UART>
READ: 0x00
UART>
READ: 0x00
UART>
READ: 0x37
UART>
READ: 0x00
UART>
READ: 0x00
UART>
READ: 0x03
UART>
READ: 0x33
UART>
READ: 0x00
UART>
READ: 0x00
UART>
READ: 0x00
UART>
READ: 0x35
UART>
READ: 0x01
UART>
READ: 0x00
UART>
READ: 0x00
UART>
READ: 0x00
UART>
READ: 0x2B
UART>
READ: 0x16
UART>
READ: 0x11
UART>
READ: 0x0B
UART>
READ: 0x00
UART>
READ: 0x00
UART>
READ: 0x00
UART>
READ: 0x37
UART>
READ: 0x00
UART>
READ: 0x00
UART>
READ: 0x03
UART>
READ: 0x33
UART>
READ: 0x00
UART>
READ: 0x00
UART>
READ: 0x00
UART>
READ: 0x35
UART>
READ: 0x01
UART>
READ: 0x00
UART>
READ: 0x00
UART>
READ: 0x00
UART>
READ: 0x2B
UART>
READ: 0x16
UART>
READ: 0x11
UART>
READ: 0x0B
UART>
READ: 0x00
UART>
READ: 0x00
UART>
READ: 0x00
UART>
READ: 0x37
UART>
READ: 0x00
UART>
READ: 0x00
UART>
READ: 0x03
UART>
READ: 0x34
UART>
READ: 0x00
UART>
READ: 0x00
UART>
READ: 0x00
UART>
READ: 0x35
UART>
READ: 0x01
UART>
READ: 0x00
UART>
READ: 0x00
UART>
READ: 0x00
UART>
READ: 0x2A
UART>
READ: 0x16
UART>
READ: 0x11
UART>
READ: 0x0B
UART>
READ: 0x00
UART>
READ: 0x00
UART>
READ: 0x00
UART>
READ: 0x38
UART>
READ: 0x00
UART>
READ: 0x00
UART>
READ: 0x03
UART>
READ: 0x35
UART>
READ: 0x00
UART>
READ: 0x00
UART>
READ: 0x00
UART>
READ: 0x36
UART>
READ: 0x01
UART>
READ: 0x00
UART>
READ: 0x00
UART>
READ: 0x00
UART>
READ: 0x27
UART>
READ: 0x16
UART>
READ: 0x11
UART>
READ: 0x0B
UART>
READ: 0x00
UART>
READ: 0x00
UART>
READ: 0x00
UART>
READ: 0x3A
UART>
READ: 0x00
UART>
READ: 0x00
UART>
READ: 0x03
UART>
READ: 0x3C
UART>
READ: 0x00
UART>
READ: 0x00
UART>
READ: 0x00
UART>
READ: 0x38
UART>
READ: 0x01
UART>
READ: 0x00
UART>
READ: 0x00
UART>
READ: 0x00
UART>
READ: 0x1C
UART>
READ: 0x16
UART>
READ: 0x11
UART>
READ: 0x0B
UART>
READ: 0x00
UART>
READ: 0x00
UART>
READ: 0x00
UART>
READ: 0x3B
UART>
READ: 0x00
UART>
READ: 0x00
UART>
READ: 0x03
UART>
READ: 0x3D
UART>
READ: 0x00
UART>
READ: 0x00
UART>
READ: 0x00
UART>
READ: 0x39
UART>
READ: 0x01
UART>
READ: 0x00
UART>
READ: 0x00
UART>
READ: 0x00
UART>
READ: 0x19
UART>
READ: 0x16
UART>
READ: 0x11
UART>
READ: 0x0B
UART>
READ: 0x00
UART>
READ: 0x00
UART>
READ: 0x00
UART>
READ: 0x3B
UART>
READ: 0x00
UART>
READ: 0x00
UART>
READ: 0x03
UART>
READ: 0x3E
UART>
READ: 0x00
UART>
READ: 0x00
UART>
READ: 0x00
UART>
READ: 0x39
UART>
READ: 0x01
UART>
READ: 0x00
UART>
READ: 0x00
UART>
READ: 0x00
UART>
READ: 0x18
UART>
READ: 0x16
UART>
READ: 0x11
UART>
READ: 0x0B
UART>
READ: 0x00
UART>
READ: 0x00
UART>
READ: 0x00
UART>
READ: 0x3B
UART>
READ: 0x00
UART>
READ: 0x00
UART>
READ: 0x03
UART>
READ: 0x3E
UART>
READ: 0x00
UART>
READ: 0x00
UART>
READ: 0x00
UART>
READ: 0x39
UART>
READ: 0x01
UART>
READ: 0x00
UART>
READ: 0x00
UART>
READ: 0x00
UART>
READ: 0x18
UART>
READ: 0x16
UART>
READ: 0x11
UART>
READ: 0x0B
UART>
READ: 0x00
UART>
READ: 0x00
UART>
READ: 0x00
UART>
READ: 0x3B
UART>
READ: 0x00
UART>
READ: 0x00
UART>
READ: 0x03
UART>
READ: 0x3E
UART>
READ: 0x00
UART>
READ: 0x00
UART>
READ: 0x00
UART>
READ: 0x39
UART>
READ: 0x01
UART>
READ: 0x00
UART>
READ: 0x00
UART>
READ: 0x00
UART>
READ: 0x18
UART>
READ: 0x16
UART>
READ: 0x11
UART>
READ: 0x0B
UART>
READ: 0x00
UART>
READ: 0x00
UART>
READ: 0x00
UART>
READ: 0x3B
UART>
READ: 0x00
UART>
READ: 0x00
UART>
READ: 0x03
UART>
READ: 0x3E
UART>
READ: 0x00
UART>
READ: 0x00
UART>
READ: 0x00
UART>
READ: 0x39
UART>
READ: 0x01
UART>
READ: 0x00
UART>
READ: 0x00
UART>
READ: 0x00
UART>
READ: 0x18
UART>
READ: 0x16
UART>
READ: 0x11
UART>
READ: 0x0B
UART>
READ: 0x00
UART>
READ: 0x00
UART>
READ: 0x00
UART>
READ: 0x3B
UART>
READ: 0x00
UART>
READ: 0x00
UART>
READ: 0x03
UART>
READ: 0x3D
UART>
READ: 0x00
UART>
READ: 0x00
UART>
READ: 0x00
UART>
READ: 0x39
UART>
READ: 0x01
UART>
READ: 0x00
UART>
READ: 0x00
UART>
READ: 0x00
UART>
READ: 0x19
UART>
READ: 0x16
UART>
READ: 0x11
UART>
READ: 0x0B
UART>
READ: 0x00
UART>
READ: 0x00
UART>
READ: 0x00
UART>
READ: 0x35
UART>
READ: 0x00
UART>
READ: 0x00
UART>
READ: 0x03
UART>
READ: 0x2E
UART>
READ: 0x00
UART>
READ: 0x00
UART>
READ: 0x00
UART>
READ: 0x33
UART>
READ: 0x01
UART>
READ: 0x00
UART>
READ: 0x00
UART>
READ: 0x00
UART>
READ: 0x34
UART>
READ: 0x16
UART>
READ: 0x11
UART>
READ: 0x0B
UART>
READ: 0x00
UART>
READ: 0x00
UART>
READ: 0x00
UART>
READ: 0x35
UART>
READ: 0x00
UART>
READ: 0x00
UART>
READ: 0x03
UART>
READ: 0x2F
UART>
READ: 0x00
UART>
READ: 0x00
UART>
READ: 0x00
UART>
READ: 0x33
UART>
READ: 0x01
UART>
READ: 0x00
UART>
READ: 0x00
UART>
READ: 0x00
UART>
READ: 0x33
UART>
READ: 0x16
UART>
READ: 0x11
UART>
READ: 0x0B
UART>
READ: 0x00
UART>
READ: 0x00
UART>
READ: 0x00
UART>
READ: 0x36
UART>
READ: 0x00
UART>
READ: 0x00
UART>
READ: 0x03
UART>
READ: 0x30
UART>
READ: 0x00
UART>
READ: 0x00
UART>
READ: 0x00
UART>
READ: 0x34
UART>
READ: 0x01
UART>
READ: 0x00
UART>
READ: 0x00
UART>
READ: 0x00
UART>
READ: 0x30
UART>
READ: 0x16
UART>
READ: 0x11
UART>
READ: 0x0B
UART>
READ: 0x00
UART>
READ: 0x00
UART>
READ: 0x00
UART>
READ: 0x36
UART>
READ: 0x00
UART>
READ: 0x00
UART>
READ: 0x03
UART>
READ: 0x31
UART>
READ: 0x00
UART>
READ: 0x00
UART>
READ: 0x00
UART>
READ: 0x34
UART>
READ: 0x01
UART>
READ: 0x00
UART>
READ: 0x00
UART>
READ: 0x00
UART>
READ: 0x2F
UART>
READ: 0x16
UART>
READ: 0x11
UART>
READ: 0x0B
UART>
READ: 0x00
UART>
READ: 0x00
UART>
READ: 0x00
UART>
READ: 0x36
UART>
READ: 0x00
UART>
READ: 0x00
UART>
READ: 0x03
UART>
READ: 0x31
UART>
READ: 0x00
UART>
READ: 0x00
UART>
READ: 0x00
UART>
READ: 0x34
UART>
READ: 0x01
UART>
READ: 0x00
UART>
READ: 0x00
UART>
READ: 0x00
UART>
READ: 0x2F
UART>
READ: 0x16
UART>
READ: 0x11
UART>
READ: 0x0B
UART>
READ: 0x00
UART>
READ: 0x00
UART>
READ: 0x00
UART>
READ: 0x36
UART>
READ: 0x00
UART>
READ: 0x00
UART>
READ: 0x03
UART>
READ: 0x32
UART>
READ: 0x00
UART>
READ: 0x00
UART>
READ: 0x00
UART>
READ: 0x34
UART>
READ: 0x01
UART>
READ: 0x00
UART>
READ: 0x00
UART>
READ: 0x00
UART>
READ: 0x2E
UART>
READ: 0x16
UART>
READ: 0x11
UART>
READ: 0x0B
UART>
READ: 0x00
UART>
READ: 0x00
UART>
READ: 0x00
UART>
READ: 0x36
UART>
READ: 0x00
UART>
READ: 0x00
UART>
READ: 0x03
UART>
READ: 0x32
UART>
READ: 0x00
UART>
READ: 0x00
UART>
READ: 0x00
UART>
READ: 0x34
UART>
READ: 0x01
UART>
READ: 0x00
UART>
READ: 0x00
UART>
READ: 0x00
UART>
READ: 0x2E
UART>
READ: 0x16
UART>
READ: 0x11
UART>
READ: 0x0B
UART>
READ: 0x00
UART>
READ: 0x00
UART>
READ: 0x00
UART>
READ: 0x33
UART>
READ: 0x00
UART>
READ: 0x00
UART>
READ: 0x03
UART>
READ: 0x28
UART>
READ: 0x00
UART>
READ: 0x00
UART>
READ: 0x00
UART>
READ: 0x31
UART>
READ: 0x01
UART>
READ: 0x00
UART>
READ: 0x00
UART>
READ: 0x00
UART>
READ: 0x3E
UART>
READ: 0x16
UART>
READ: 0x11
UART>
READ: 0x0B
UART>
READ: 0x00
UART>
READ: 0x00
UART>
READ: 0x00
UART>
READ: 0x33
UART>
READ: 0x00
UART>
READ: 0x00
UART>
READ: 0x03
UART>
READ: 0x29
UART>
READ: 0x00
UART>
READ: 0x00
UART>
READ: 0x00
UART>
READ: 0x31
UART>
READ: 0x01
UART>
READ: 0x00
UART>
READ: 0x00
UART>
READ: 0x00
UART>
READ: 0x3D
UART>
READ: 0x16
UART>
READ: 0x11
UART>
READ: 0x0B
UART>
READ: 0x00
UART>
READ: 0x00
UART>
READ: 0x00
UART>
READ: 0x33
UART>
READ: 0x00
UART>
READ: 0x00
UART>
READ: 0x03
UART>
READ: 0x29
UART>
READ: 0x00
UART>
READ: 0x00
UART>
READ: 0x00
UART>
READ: 0x31
UART>
READ: 0x01
UART>
READ: 0x00
UART>
READ: 0x00
UART>
READ: 0x00
UART>
READ: 0x3D
UART>
READ: 0x16
UART>
READ: 0x11
UART>
READ: 0x0B
UART>
READ: 0x00
UART>
READ: 0x00
UART>
READ: 0x00
UART>
READ: 0x34
UART>
READ: 0x00
UART>
READ: 0x00
UART>
READ: 0x03
UART>
READ: 0x2B
UART>
READ: 0x00
UART>
READ: 0x00
UART>
READ: 0x00
UART>
READ: 0x32
UART>
READ: 0x01
UART>
READ: 0x00
UART>
READ: 0x00
UART>
READ: 0x00
UART>
READ: 0x39
UART>
READ: 0x16
UART>
READ: 0x11
UART>
READ: 0x0B
UART>
READ: 0x00
UART>
READ: 0x00
UART>
READ: 0x00
UART>
READ: 0x34
UART>
READ: 0x00
UART>
READ: 0x00
UART>
READ: 0x03
UART>
READ: 0x2C
UART>
READ: 0x00
UART>
READ: 0x00
UART>
READ: 0x00
UART>
READ: 0x32
UART>
READ: 0x01
UART>
READ: 0x00
UART>
READ: 0x00
UART>
READ: 0x00
UART>
READ: 0x38
UART>
READ: 0x16
UART>
READ: 0x11
UART>
READ: 0x0B
UART>
READ: 0x00
UART>
READ: 0x00
UART>
READ: 0x00
UART>
READ: 0x35
UART>
READ: 0x00
UART>
READ: 0x00
UART>
READ: 0x03
UART>
READ: 0x2D
UART>
READ: 0x00
UART>
READ: 0x00
UART>
READ: 0x00
UART>
READ: 0x33
UART>
READ: 0x01
UART>
READ: 0x00
UART>
READ: 0x00
UART>
READ: 0x00
UART>
READ: 0x35
UART>
READ: 0x16
UART>
READ: 0x11
UART>
READ: 0x0B
UART>
READ: 0x00
UART>
READ: 0x00
UART>
READ: 0x00
UART>
READ: 0x35
UART>
READ: 0x00
UART>
READ: 0x00
UART>
READ: 0x03
UART>
READ: 0x2E
UART>
READ: 0x00
UART>
READ: 0x00
UART>
READ: 0x00
UART>
READ: 0x33
UART>
READ: 0x01
UART>
READ: 0x00
UART>
READ: 0x00
UART>
READ: 0x00
UART>
READ: 0x34
UART>
READ: 0x16
UART>
READ: 0x11
UART>
READ: 0x0B
UART>
READ: 0x00
UART>
READ: 0x00
UART>
READ: 0x00
UART>
READ: 0x33
UART>
READ: 0x00
UART>
READ: 0x00
UART>
READ: 0x03
UART>
READ: 0x29
UART>
READ: 0x00
UART>
READ: 0x00
UART>
READ: 0x00
UART>
READ: 0x31
UART>
READ: 0x01
UART>
READ: 0x00
UART>
READ: 0x00
UART>
READ: 0x00
UART>
READ: 0x3D
UART>
READ: 0x16
UART>
READ: 0x11
UART>
READ: 0x0B
UART>
READ: 0x00
UART>
READ: 0x00
UART>
READ: 0x00
UART>
READ: 0x33
UART>
READ: 0x00
UART>
READ: 0x00
UART>
READ: 0x03
UART>
READ: 0x2A
UART>
READ: 0x00
UART>
READ: 0x00
UART>
READ: 0x00
UART>
READ: 0x31
UART>
READ: 0x01
UART>
READ: 0x00
UART>
READ: 0x00
UART>
READ: 0x00
UART>
READ: 0x3C
UART>
READ: 0x16
UART>
READ: 0x11
UART>
READ: 0x0B
UART>
READ: 0x00
UART>
READ: 0x00
UART>
READ: 0x00
UART>
READ: 0x34
UART>
READ: 0x00
UART>
READ: 0x00
UART>
READ: 0x03
UART>
READ: 0x2C
UART>
READ: 0x00
UART>
READ: 0x00
UART>
READ: 0x00
UART>
READ: 0x32
UART>
READ: 0x01
UART>
READ: 0x00
UART>
READ: 0x00
UART>
READ: 0x00
UART>
READ: 0x38
UART>
READ: 0x16
UART>
READ: 0x11
UART>
READ: 0x0B
UART>
READ: 0x00
UART>
READ: 0x00
UART>
READ: 0x00
UART>
READ: 0x34
UART>
READ: 0x00
UART>
READ: 0x00
UART>
READ: 0x03
UART>
READ: 0x2C
UART>
READ: 0x00
UART>
READ: 0x00
UART>
READ: 0x00
UART>
READ: 0x32
UART>
READ: 0x01
UART>
READ: 0x00
UART>
READ: 0x00
UART>
READ: 0x00
UART>
READ: 0x38
UART>
READ: 0x16
UART>
READ: 0x11
UART>
READ: 0x0B
UART>
READ: 0x00
UART>
READ: 0x00
UART>
READ: 0x00
UART>
READ: 0x35
UART>
READ: 0x00
UART>
READ: 0x00
UART>
READ: 0x03
UART>
READ: 0x2D
UART>
READ: 0x00
UART>
READ: 0x00
UART>
READ: 0x00
UART>
READ: 0x33
UART>
READ: 0x01
UART>
READ: 0x00
UART>
READ: 0x00
UART>
READ: 0x00
UART>
READ: 0x35
UART>
READ: 0x16
UART>
READ: 0x11
UART>
READ: 0x0B
UART>
READ: 0x00
UART>
READ: 0x00
UART>
READ: 0x00
UART>
READ: 0x35
UART>
READ: 0x00
UART>
READ: 0x00
UART>
READ: 0x03
UART>
READ: 0x2D
UART>
READ: 0x00
UART>
READ: 0x00
UART>
READ: 0x00
UART>
READ: 0x33
UART>
READ: 0x01
UART>
READ: 0x00
UART>
READ: 0x00
UART>
READ: 0x00
UART>
READ: 0x35
UART>
READ: 0x16
UART>
READ: 0x11
UART>
READ: 0x0B
UART>
READ: 0x00
UART>
READ: 0x00
UART>
READ: 0x00
UART>
READ: 0x35
UART>
READ: 0x00
UART>
READ: 0x00
UART>
READ: 0x03
UART>
READ: 0x2D
UART>
READ: 0x00
UART>
READ: 0x00
UART>
READ: 0x00
UART>
READ: 0x33
UART>
READ: 0x01
UART>
READ: 0x00
UART>
READ: 0x00
UART>
READ: 0x00
UART>
READ: 0x35
UART>
READ: 0x16
UART>
READ: 0x11
UART>
READ: 0x0B
UART>
READ: 0x00
UART>
READ: 0x00
UART>
READ: 0x00
UART>
READ: 0x33
UART>
READ: 0x00
UART>
READ: 0x00
UART>
READ: 0x03
UART>
READ: 0x28
UART>
READ: 0x00
UART>
READ: 0x00
UART>
READ: 0x00
UART>
READ: 0x31
UART>
READ: 0x01
UART>
READ: 0x00
UART>
READ: 0x00
UART>
READ: 0x00
UART>
READ: 0x3E
UART>
READ: 0x16
UART>
READ: 0x11
UART>
READ: 0x0B
UART>
READ: 0x00
UART>
READ: 0x00
UART>
READ: 0x00
UART>
READ: 0x33
UART>
READ: 0x00
UART>
READ: 0x00
UART>
READ: 0x03
UART>
READ: 0x28
UART>
READ: 0x00
UART>
READ: 0x00
UART>
READ: 0x00
UART>
READ: 0x31
UART>
READ: 0x01
UART>
READ: 0x00
UART>
READ: 0x00
UART>
READ: 0x00
UART>
READ: 0x3E
UART>
READ: 0x16
UART>
READ: 0x11
UART>
READ: 0x0B
UART>
READ: 0x00
UART>
READ: 0x00
UART>
READ: 0x00
UART>
READ: 0x33
UART>
READ: 0x00
UART>
READ: 0x00
UART>
READ: 0x03
UART>
READ: 0x28
UART>
READ: 0x00
UART>
READ: 0x00
UART>
READ: 0x00
UART>
READ: 0x31
UART>
READ: 0x01
UART>
READ: 0x00
UART>
READ: 0x00
UART>
READ: 0x00
UART>
READ: 0x3E
UART>
READ: 0x16
UART>
READ: 0x11
UART>
READ: 0x0B
UART>
READ: 0x00
UART>
READ: 0x00
UART>
READ: 0x00
UART>
READ: 0x33
UART>
READ: 0x00
UART>
READ: 0x00
UART>
READ: 0x03
UART>
READ: 0x29
UART>
READ: 0x00
UART>
READ: 0x00
UART>
READ: 0x00
UART>
READ: 0x31
UART>
READ: 0x01
UART>
READ: 0x00
UART>
READ: 0x00
UART>
READ: 0x00
UART>
READ: 0x3D
UART>
READ: 0x16
UART>
READ: 0x11
UART>
READ: 0x0B
UART>
READ: 0x00
UART>
READ: 0x00
UART>
READ: 0x00
UART>
READ: 0x33
UART>
READ: 0x00
UART>
READ: 0x00
UART>
READ: 0x03
UART>
READ: 0x29
UART>
READ: 0x00
UART>
READ: 0x00
UART>
READ: 0x00
UART>
READ: 0x31
UART>
READ: 0x01
UART>
READ: 0x00
UART>
READ: 0x00
UART>
READ: 0x00
UART>
READ: 0x3D
UART>
READ: 0x16
UART>
READ: 0x11
UART>
READ: 0x0B
UART>
READ: 0x00
UART>
READ: 0x00
UART>
READ: 0x00
UART>
READ: 0x33
UART>
READ: 0x00
UART>
READ: 0x00
UART>
READ: 0x03
UART>
READ: 0x2A
UART>
READ: 0x00
UART>
READ: 0x00
UART>
READ: 0x00
UART>
READ: 0x31
UART>
READ: 0x01
UART>
READ: 0x00
UART>
READ: 0x00
UART>
READ: 0x00
UART>
READ: 0x3C
UART>
READ: 0x16
UART>
READ: 0x11
UART>
READ: 0x0B
UART>
READ: 0x00
UART>
READ: 0x00
UART>
READ: 0x00
UART>
READ: 0x34
UART>
READ: 0x00
UART>
READ: 0x00
UART>
READ: 0x03
UART>
READ: 0x2B
UART>
READ: 0x00
UART>
READ: 0x00
UART>
READ: 0x00
UART>
READ: 0x32
UART>
READ: 0x01
UART>
READ: 0x00
UART>
READ: 0x00
UART>
READ: 0x00
UART>
READ: 0x39
UART>
READ: 0x16
UART>
READ: 0x11
UART>
READ: 0x0B
UART>
READ: 0x00
UART>
READ: 0x00
UART>
READ: 0x00
UART>
READ: 0x33
UART>
READ: 0x00
UART>
READ: 0x00
UART>
READ: 0x03
UART>
READ: 0x29
UART>
READ: 0x00
UART>
READ: 0x00
UART>
READ: 0x00
UART>
READ: 0x31
UART>
READ: 0x01
UART>
READ: 0x00
UART>
READ: 0x00
UART>
READ: 0x00
UART>
READ: 0x3D
UART>
READ: 0x16
UART>
READ: 0x11
UART>
READ: 0x0B
UART>
READ: 0x00
UART>
READ: 0x00
UART>
READ: 0x00
UART>
READ: 0x33
UART>
READ: 0x00
UART>
READ: 0x00
UART>
READ: 0x03
UART>
READ: 0x2A
UART>
READ: 0x00
UART>
READ: 0x00
UART>
READ: 0x00
UART>
READ: 0x31
UART>
READ: 0x01
UART>
READ: 0x00
UART>
READ: 0x00
UART>
READ: 0x00
UART>
READ: 0x3C
UART>
READ: 0x16
UART>
READ: 0x11
UART>
READ: 0x0B
UART>
READ: 0x00
UART>
READ: 0x00
UART>
READ: 0x00
UART>
READ: 0x34
UART>
READ: 0x00
UART>
READ: 0x00
UART>
READ: 0x03
UART>
READ: 0x2B
UART>
READ: 0x00
UART>
READ: 0x00
UART>
READ: 0x00
UART>
READ: 0x32
UART>
READ: 0x01
UART>
READ: 0x00
UART>
READ: 0x00
UART>
READ: 0x00
UART>
READ: 0x39
UART>
READ: 0x16
UART>
READ: 0x11
UART>
READ: 0x0B
UART>
READ: 0x00
UART>
READ: 0x00
UART>
READ: 0x00
UART>
READ: 0x34
UART>
READ: 0x00
UART>
READ: 0x00
UART>
READ: 0x03
UART>
READ: 0x2B
UART>
READ: 0x00
UART>
READ: 0x00
UART>
READ: 0x00
UART>
READ: 0x32
UART>
READ: 0x01
UART>
READ: 0x00
UART>
READ: 0x00
UART>
READ: 0x00
UART>
READ: 0x39
UART>
READ: 0x16
UART>
READ: 0x11
UART>
READ: 0x0B
UART>
READ: 0x00
UART>
READ: 0x00
UART>
READ: 0x00
UART>
READ: 0x34
UART>
READ: 0x00
UART>
READ: 0x00
UART>
READ: 0x03
UART>
READ: 0x2B
UART>
READ: 0x00
UART>
READ: 0x00
UART>
READ: 0x00
UART>
READ: 0x32
UART>
READ: 0x01
UART>
READ: 0x00
UART>
READ: 0x00
UART>
READ: 0x00
UART>
READ: 0x39
UART>
READ: 0x16
UART>
READ: 0x11
UART>
READ: 0x0B
UART>
READ: 0x00
UART>
READ: 0x00
UART>
READ: 0x00
UART>
READ: 0x34
UART>
READ: 0x00
UART>
READ: 0x00
UART>
READ: 0x03
UART>
READ: 0x2C
UART>
READ: 0x00
UART>
READ: 0x00
UART>
READ: 0x00
UART>
READ: 0x32
UART>
READ: 0x01
UART>
READ: 0x00
UART>
READ: 0x00
UART>
READ: 0x00
UART>
READ: 0x38
UART>
READ: 0x16
UART>
READ: 0x11
UART>
READ: 0x0B
UART>
READ: 0x00
UART>
READ: 0x00
UART>
READ: 0x00
UART>
READ: 0x35
UART>
READ: 0x00
UART>
READ: 0x00
UART>
READ: 0x03
UART>
READ: 0x2E
UART>
READ: 0x00
UART>
READ: 0x00
UART>
READ: 0x00
UART>
READ: 0x33
UART>
READ: 0x01
UART>
READ: 0x00
UART>
READ: 0x00
UART>
READ: 0x00
UART>
READ: 0x34
UART>
READ: 0x16
UART>
READ: 0x11
UART>
READ: 0x0B
UART>
READ: 0x00
UART>
READ: 0x00
UART>
READ: 0x00
UART>
READ: 0x33
UART>
READ: 0x00
UART>
READ: 0x00
UART>
READ: 0x03
UART>
READ: 0x28
UART>
READ: 0x00
UART>
READ: 0x00
UART>
READ: 0x00
UART>
READ: 0x31
UART>
READ: 0x01
UART>
READ: 0x00
UART>
READ: 0x00
UART>
READ: 0x00
UART>
READ: 0x3E
UART>
READ: 0x16
UART>
READ: 0x11
UART>
READ: 0x0B
UART>
READ: 0x00
UART>
READ: 0x00
UART>
READ: 0x00
UART>
READ: 0x33
UART>
READ: 0x00
UART>
READ: 0x00
UART>
READ: 0x03
UART>
READ: 0x28
UART>
READ: 0x00
UART>
READ: 0x00
UART>
READ: 0x00
UART>
READ: 0x31
UART>
READ: 0x01
UART>
READ: 0x00
UART>
READ: 0x00
UART>
READ: 0x00
UART>
READ: 0x3E
UART>
READ: 0x16
UART>
READ: 0x11
UART>
READ: 0x0B
UART>
READ: 0x00
UART>
READ: 0x00
UART>
READ: 0x00
UART>
READ: 0x33
UART>
READ: 0x00
UART>
READ: 0x00
UART>
READ: 0x03
UART>
READ: 0x29
UART>
READ: 0x00
UART>
READ: 0x00
UART>
READ: 0x00
UART>
READ: 0x31
UART>
READ: 0x01
UART>
READ: 0x00
UART>
READ: 0x00
UART>
READ: 0x00
UART>
READ: 0x3D
UART>
READ: 0x16
UART>
READ: 0x11
UART>
READ: 0x0B
UART>
READ: 0x00
UART>
READ: 0x00
UART>
READ: 0x00
UART>
READ: 0x33
UART>
READ: 0x00
UART>
READ: 0x00
UART>
READ: 0x03
UART>
READ: 0x29
UART>
READ: 0x00
UART>
READ: 0x00
UART>
READ: 0x00
UART>
READ: 0x31
UART>
READ: 0x01
UART>
READ: 0x00
UART>
READ: 0x00
UART>
READ: 0x00
UART>
READ: 0x3D
UART>
READ: 0x16
UART>
READ: 0x11
UART>
READ: 0x0B
UART>
READ: 0x00
UART>
READ: 0x00
UART>
READ: 0x00
UART>
READ: 0x33
UART>
READ: 0x00
UART>
READ: 0x00
UART>
READ: 0x03
UART>
READ: 0x29
UART>
READ: 0x00
UART>
READ: 0x00
UART>
READ: 0x00
UART>
READ: 0x31
UART>
READ: 0x01
UART>
READ: 0x00
UART>
READ: 0x00
UART>
READ: 0x00
UART>
READ: 0x3D
UART>
READ: 0x16
UART>
READ: 0x11
UART>
READ: 0x0B
UART>
READ: 0x00
UART>
READ: 0x00
UART>
READ: 0x00
UART>
READ: 0x33
UART>
READ: 0x00
UART>
READ: 0x00
UART>
READ: 0x03
UART>
READ: 0x2A
UART>
READ: 0x00
UART>
READ: 0x00
UART>
READ: 0x00
UART>
READ: 0x31
UART>
READ: 0x01
UART>
READ: 0x00
UART>
READ: 0x00
UART>
READ: 0x00
UART>
READ: 0x3C
UART>
READ: 0x16
UART>
READ: 0x11
UART>
READ: 0x0B
UART>
READ: 0x00
UART>
READ: 0x00
UART>
READ: 0x00
UART>
READ: 0x34
UART>
READ: 0x00
UART>
READ: 0x00
UART>
READ: 0x03
UART>
READ: 0x2B
UART>
READ: 0x00
UART>
READ: 0x00
UART>
READ: 0x00
UART>
READ: 0x32
UART>
READ: 0x01
UART>
READ: 0x00
UART>
READ: 0x00
UART>
READ: 0x00
UART>
READ: 0x39
UART>
READ: 0x16
UART>
READ: 0x11
UART>
READ: 0x0B
UART>
READ: 0x00
UART>
READ: 0x00
UART>
READ: 0x00
UART>
READ: 0x37
UART>
READ: 0x00
UART>
READ: 0x00
UART>
READ: 0x03
UART>
READ: 0x34
UART>
READ: 0x00
UART>
READ: 0x00
UART>
READ: 0x00
UART>
READ: 0x35
UART>
READ: 0x01
UART>
READ: 0x00
UART>
READ: 0x00
UART>
READ: 0x00
UART>
READ: 0x2A
UART>
READ: 0x16
UART>
READ: 0x11
UART>
READ: 0x0B
UART>
READ: 0x00
UART>
READ: 0x00
UART>
READ: 0x00
UART>
READ: 0x37
UART>
READ: 0x00
UART>
READ: 0x00
UART>
READ: 0x03
UART>
READ: 0x34
UART>
READ: 0x00
UART>
READ: 0x00
UART>
READ: 0x00
UART>
READ: 0x35
UART>
READ: 0x01
UART>
READ: 0x00
UART>
READ: 0x00
UART>
READ: 0x00
UART>
READ: 0x2A
UART>
READ: 0x16
UART>
READ: 0x11
UART>
READ: 0x0B
UART>
READ: 0x00
UART>
READ: 0x00
UART>
READ: 0x00
UART>
READ: 0x38
UART>
READ: 0x00
UART>
READ: 0x00
UART>
READ: 0x03
UART>
READ: 0x35
UART>
READ: 0x00
UART>
READ: 0x00
UART>
READ: 0x00
UART>
READ: 0x36
UART>
READ: 0x01
UART>
READ: 0x00
UART>
READ: 0x00
UART>
READ: 0x00
UART>
READ: 0x27
UART>
READ: 0x16
UART>
READ: 0x11
UART>
READ: 0x0B
UART>
READ: 0x00
UART>
READ: 0x00
UART>
READ: 0x00
UART>
READ: 0x38
UART>
READ: 0x00
UART>
READ: 0x00
UART>
READ: 0x03
UART>
READ: 0x35
UART>
READ: 0x00
UART>
READ: 0x00
UART>
READ: 0x00
UART>
READ: 0x36
UART>
READ: 0x01
UART>
READ: 0x00
UART>
READ: 0x00
UART>
READ: 0x00
UART>
READ: 0x27
UART>
READ: 0x16
UART>
READ: 0x11
UART>
READ: 0x0B
UART>
READ: 0x00
UART>
READ: 0x00
UART>
READ: 0x00
UART>
READ: 0x38
UART>
READ: 0x00
UART>
READ: 0x00
UART>
READ: 0x03
UART>
READ: 0x35
UART>
READ: 0x00
UART>
READ: 0x00
UART>
READ: 0x00
UART>
READ: 0x36
UART>
READ: 0x01
UART>
READ: 0x00
UART>
READ: 0x00
UART>
READ: 0x00
UART>
READ: 0x27
UART>
READ: 0x16
UART>
READ: 0x11
UART>
READ: 0x0B
UART>
READ: 0x00
UART>
READ: 0x00
UART>
READ: 0x00
UART>
READ: 0x38
UART>
READ: 0x00
UART>
READ: 0x00
UART>
READ: 0x03
UART>
READ: 0x36
UART>
READ: 0x00
UART>
READ: 0x00
UART>
READ: 0x00
UART>
READ: 0x36
UART>
READ: 0x01
UART>
READ: 0x00
UART>
READ: 0x00
UART>
READ: 0x00
UART>
READ: 0x26
UART>
READ: 0x16
UART>
READ: 0x11
UART>
READ: 0x0B
UART>
READ: 0x00
UART>
READ: 0x00
UART>
READ: 0x00
UART>
READ: 0x38
UART>
READ: 0x00
UART>
READ: 0x00
UART>
READ: 0x03
UART>
READ: 0x35
UART>
READ: 0x00
UART>
READ: 0x00
UART>
READ: 0x00
UART>
READ: 0x36
UART>
READ: 0x01
UART>
READ: 0x00
UART>
READ: 0x00
UART>
READ: 0x00
UART>
READ: 0x27
UART>
READ: 0x16
UART>
READ: 0x11
UART>
READ: 0x0B
UART>
READ: 0x00
UART>
READ: 0x00
UART>
READ: 0x00
UART>
READ: 0x33
UART>
READ: 0x00
UART>
READ: 0x00
UART>
READ: 0x03
UART>
READ: 0x28
UART>
READ: 0x00
UART>
READ: 0x00
UART>
READ: 0x00
UART>
READ: 0x31
UART>
READ: 0x01
UART>
READ: 0x00
UART>
READ: 0x00
UART>
READ: 0x00
UART>
READ: 0x3E
UART>
READ: 0x16
UART>
READ: 0x11
UART>
READ: 0x0B
UART>
READ: 0x00
UART>
READ: 0x00
UART>
READ: 0x00
UART>
READ: 0x33
UART>
READ: 0x00
UART>
READ: 0x00
UART>
READ: 0x03
UART>
READ: 0x28
UART>
READ: 0x00
UART>
READ: 0x00
UART>
READ: 0x00
UART>
READ: 0x31
UART>
READ: 0x01
UART>
READ: 0x00
UART>
READ: 0x00
UART>
READ: 0x00
UART>
READ: 0x3E
UART>
READ: 0x16
UART>
READ: 0x11
UART>
READ: 0x0B
UART>
READ: 0x00
UART>
READ: 0x00
UART>
READ: 0x00
UART>
READ: 0x33
UART>
READ: 0x00
UART>
READ: 0x00
UART>
READ: 0x03
UART>
READ: 0x29
UART>
READ: 0x00
UART>
READ: 0x00
UART>
READ: 0x00
UART>
READ: 0x31
UART>
READ: 0x01
UART>
READ: 0x00
UART>
READ: 0x00
UART>
READ: 0x00
UART>
READ: 0x3D
UART>
READ: 0x16
UART>
READ: 0x11
UART>
READ: 0x0B
UART>
READ: 0x00
UART>
READ: 0x00
UART>
READ: 0x00
UART>
READ: 0x34
UART>
READ: 0x00
UART>
READ: 0x00
UART>
READ: 0x03
UART>
READ: 0x2B
UART>
READ: 0x00
UART>
READ: 0x00
UART>
READ: 0x00
UART>
READ: 0x32
UART>
READ: 0x01
UART>
READ: 0x00
UART>
READ: 0x00
UART>
READ: 0x00
UART>
READ: 0x39
UART>
READ: 0x16
UART>
READ: 0x11
UART>
READ: 0x0B
UART>
READ: 0x00
UART>
READ: 0x00
UART>
READ: 0x00
UART>
READ: 0x34
UART>
READ: 0x00
UART>
READ: 0x00
UART>
READ: 0x03
UART>
READ: 0x2C
UART>
READ: 0x00
UART>
READ: 0x00
UART>
READ: 0x00
UART>
READ: 0x32
UART>
READ: 0x01
UART>
READ: 0x00
UART>
READ: 0x00
UART>
READ: 0x00
UART>
READ: 0x38
UART>
READ: 0x16
UART>
READ: 0x11
UART>
READ: 0x0B
UART>
READ: 0x00
UART>
READ: 0x00
UART>
READ: 0x00
UART>
READ: 0x34
UART>
READ: 0x00
UART>
READ: 0x00
UART>
READ: 0x03
UART>
READ: 0x2C
UART>
READ: 0x00
UART>
READ: 0x00
UART>
READ: 0x00
UART>
READ: 0x32
UART>
READ: 0x01
UART>
READ: 0x00
UART>
READ: 0x00
UART>
READ: 0x00
UART>
READ: 0x38
UART>
READ: 0x16
UART>
READ: 0x11
UART>
READ: 0x0B
UART>
READ: 0x00
UART>
READ: 0x00
UART>
READ: 0x00
UART>
READ: 0x34
UART>
READ: 0x00
UART>
READ: 0x00
UART>
READ: 0x03
UART>
READ: 0x2C
UART>
READ: 0x00
UART>
READ: 0x00
UART>
READ: 0x00
UART>
READ: 0x32
UART>
READ: 0x01
UART>
READ: 0x00
UART>
READ: 0x00
UART>
READ: 0x00
UART>
READ: 0x38
UART>
READ: 0x16
UART>
READ: 0x11
UART>
READ: 0x0B
UART>
READ: 0x00
UART>
READ: 0x00
UART>
READ: 0x00
UART>
READ: 0x33
UART>
READ: 0x00
UART>
READ: 0x00
UART>
READ: 0x03
UART>
READ: 0x29
UART>
READ: 0x00
UART>
READ: 0x00
UART>
READ: 0x00
UART>
READ: 0x31
UART>
READ: 0x01
UART>
READ: 0x00
UART>
READ: 0x00
UART>
READ: 0x00
UART>
READ: 0x3D
UART>
READ: 0x16
UART>
READ: 0x11
UART>
READ: 0x0B
UART>
READ: 0x00
UART>
READ: 0x00
UART>
READ: 0x00
UART>
READ: 0x33
UART>
READ: 0x00
UART>
READ: 0x00
UART>
READ: 0x03
UART>
READ: 0x29
UART>
READ: 0x00
UART>
READ: 0x00
UART>
READ: 0x00
UART>
READ: 0x31
UART>
READ: 0x01
UART>
READ: 0x00
UART>
READ: 0x00
UART>
READ: 0x00
UART>
READ: 0x3D
UART>
READ: 0x16
UART>
READ: 0x11
UART>
READ: 0x0B
UART>
READ: 0x00
UART>
READ: 0x00
UART>
READ: 0x00
UART>
READ: 0x34
UART>
READ: 0x00
UART>
READ: 0x00
UART>
READ: 0x03
UART>
READ: 0x2B
UART>
READ: 0x00
UART>
READ: 0x00
UART>
READ: 0x00
UART>
READ: 0x32
UART>
READ: 0x01
UART>
READ: 0x00
UART>
READ: 0x00
UART>
READ: 0x00
UART>
READ: 0x39
UART>
READ: 0x16
UART>
READ: 0x11
UART>
READ: 0x0B
UART>
READ: 0x00
UART>
READ: 0x00
UART>
READ: 0x00
UART>
READ: 0x35
UART>
READ: 0x00
UART>
READ: 0x00
UART>
READ: 0x03
UART>
READ: 0x2D
UART>
READ: 0x00
UART>
READ: 0x00
UART>
READ: 0x00
UART>
READ: 0x33
UART>
READ: 0x01
UART>
READ: 0x00
UART>
READ: 0x00
UART>
READ: 0x00
UART>
READ: 0x35
UART>
READ: 0x16
UART>
READ: 0x11
UART>
READ: 0x0B
UART>
READ: 0x00
UART>
READ: 0x00
UART>
READ: 0x00
UART>
READ: 0x35
UART>
READ: 0x00
UART>
READ: 0x00
UART>
READ: 0x03
UART>
READ: 0x2E
UART>
READ: 0x00
UART>
READ: 0x00
UART>
READ: 0x00
UART>
READ: 0x33
UART>
READ: 0x01
UART>
READ: 0x00
UART>
READ: 0x00
UART>
READ: 0x00
UART>
READ: 0x34
UART>
READ: 0x16
UART>
READ: 0x11
UART>
READ: 0x0B
UART>
READ: 0x00
UART>
READ: 0x00
UART>
READ: 0x00
UART>
READ: 0x36
UART>
READ: 0x00
UART>
READ: 0x00
UART>
READ: 0x03
UART>
READ: 0x30
UART>
READ: 0x00
UART>
READ: 0x00
UART>
READ: 0x00
UART>
READ: 0x34
UART>
READ: 0x01
UART>
READ: 0x00
UART>
READ: 0x00
UART>
READ: 0x00
UART>
READ: 0x30
UART>
READ: 0x16
UART>
READ: 0x11
UART>
READ: 0x0B
UART>
READ: 0x00
UART>
READ: 0x00
UART>
READ: 0x00
UART>
READ: 0x36
UART>
READ: 0x00
UART>
READ: 0x00
UART>
READ: 0x03
UART>
READ: 0x32
UART>
READ: 0x00
UART>
READ: 0x00
UART>
READ: 0x00
UART>
READ: 0x34
UART>
READ: 0x01
UART>
READ: 0x00
UART>
READ: 0x00
UART>
READ: 0x00
UART>
READ: 0x2E
UART>
READ: 0x16
UART>
READ: 0x11
UART>
READ: 0x0B
UART>
READ: 0x00
UART>
READ: 0x00
UART>
READ: 0x00
UART>
READ: 0x35
UART>
READ: 0x00
UART>
READ: 0x00
UART>
READ: 0x03
UART>
READ: 0x2F
UART>
READ: 0x00
UART>
READ: 0x00
UART>
READ: 0x00
UART>
READ: 0x33
UART>
READ: 0x01
UART>
READ: 0x00
UART>
READ: 0x00
UART>
READ: 0x00
UART>
READ: 0x33
UART>
READ: 0x16
UART>
READ: 0x11
UART>
READ: 0x0B
UART>
READ: 0x00
UART>
READ: 0x00
UART>
READ: 0x00
UART>
READ: 0x36
UART>
READ: 0x00
UART>
READ: 0x00
UART>
READ: 0x03
UART>
READ: 0x30
UART>
READ: 0x00
UART>
READ: 0x00
UART>
READ: 0x00
UART>
READ: 0x34
UART>
READ: 0x01
UART>
READ: 0x00
UART>
READ: 0x00
UART>
READ: 0x00
UART>
READ: 0x30
UART>
READ: 0x16
UART>
READ: 0x11
UART>
READ: 0x0B
UART>
READ: 0x00
UART>
READ: 0x00
UART>
READ: 0x00
UART>
READ: 0x36
UART>
READ: 0x00
UART>
READ: 0x00
UART>
READ: 0x03
UART>
READ: 0x30
UART>
READ: 0x00
UART>
READ: 0x00
UART>
READ: 0x00
UART>
READ: 0x34
UART>
READ: 0x01
UART>
READ: 0x00
UART>
READ: 0x00
UART>
READ: 0x00
UART>
READ: 0x30
UART>
READ: 0x16
UART>
READ: 0x11
UART>
READ: 0x0B
UART>
READ: 0x00
UART>
READ: 0x00
UART>
READ: 0x00
UART>
READ: 0x36
UART>
READ: 0x00
UART>
READ: 0x00
UART>
READ: 0x03
UART>
READ: 0x30
UART>
READ: 0x00
UART>
READ: 0x00
UART>
READ: 0x00
UART>
READ: 0x34
UART>
READ: 0x01
UART>
READ: 0x00
UART>
READ: 0x00
UART>
READ: 0x00
UART>
READ: 0x30
UART>
READ: 0x16
UART>
READ: 0x11
UART>
READ: 0x0B
UART>
READ: 0x00
UART>
READ: 0x00
UART>
READ: 0x00
UART>
READ: 0x36
UART>
READ: 0x00
UART>
READ: 0x00
UART>
READ: 0x03
UART>
READ: 0x30
UART>
READ: 0x00
UART>
READ: 0x00
UART>
READ: 0x00
UART>
READ: 0x34
UART>
READ: 0x01
UART>
READ: 0x00
UART>
READ: 0x00
UART>
READ: 0x00
UART>
READ: 0x30
UART>
READ: 0x16
UART>
READ: 0x11
UART>
READ: 0x0B
UART>
READ: 0x00
UART>
READ: 0x00
UART>
READ: 0x00
UART>
READ: 0x36
UART>
READ: 0x00
UART>
READ: 0x00
UART>
READ: 0x03
UART>
READ: 0x30
UART>
READ: 0x00
UART>
READ: 0x00
UART>
READ: 0x00
UART>
READ: 0x34
UART>
READ: 0x01
UART>
READ: 0x00
UART>
READ: 0x00
UART>
READ: 0x00
UART>
READ: 0x30
UART>
READ: 0x16
UART>
READ: 0x11
UART>
READ: 0x0B
UART>
READ: 0x00
UART>
READ: 0x00
UART>
READ: 0x00
UART>
READ: 0x36
UART>
READ: 0x00
UART>
READ: 0x00
UART>
READ: 0x03
UART>
READ: 0x30
UART>
READ: 0x00
UART>
READ: 0x00
UART>
READ: 0x00
UART>
READ: 0x34
UART>
READ: 0x01
UART>
READ: 0x00
UART>
READ: 0x00
UART>
READ: 0x00
UART>
READ: 0x30
UART>
READ: 0x16
UART>
READ: 0x11
UART>
READ: 0x0B
UART>
READ: 0x00
UART>
READ: 0x00
UART>
READ: 0x00
UART>
READ: 0x51
UART>
READ: 0x00
UART>
READ: 0x00
UART>
READ: 0x03
UART>
READ: 0x71
UART>
READ: 0x00
UART>
READ: 0x00
UART>
READ: 0x00
UART>
READ: 0x4E
UART>
READ: 0x01
UART>
READ: 0x00
UART>
READ: 0x00
UART>
READ: 0x00
UART>
READ: 0xBA
UART>
READ: 0x16
UART>
READ: 0x11
UART>
READ: 0x0B
UART>
READ: 0x00
UART>
READ: 0x00
UART>
READ: 0x00
UART>
READ: 0x50
UART>
READ: 0x00
UART>
READ: 0x00
UART>
READ: 0x03
UART>
READ: 0x6F
UART>
READ: 0x00
UART>
READ: 0x00
UART>
READ: 0x00
UART>
READ: 0x4D
UART>
READ: 0x01
UART>
READ: 0x00
UART>
READ: 0x00
UART>
READ: 0x00
UART>
READ: 0xBE
UART>
READ: 0x16
UART>
READ: 0x11
UART>
READ: 0x0B
UART>
READ: 0x00
UART>
READ: 0x00
UART>
READ: 0x00
UART>
READ: 0x4E
UART>
READ: 0x00
UART>
READ: 0x00
UART>
READ: 0x03
UART>
READ: 0x6B
UART>
READ: 0x00
UART>
READ: 0x00
UART>
READ: 0x00
UART>
READ: 0x4B
UART>
READ: 0x01
UART>
READ: 0x00
UART>
READ: 0x00
UART>
READ: 0x00
UART>
READ: 0xC6
UART>
READ: 0x16
UART>
READ: 0x11
UART>
READ: 0x0B
UART>
READ: 0x00
UART>
READ: 0x00
UART>
READ: 0x00
UART>
READ: 0x4D
UART>
READ: 0x00
UART>
READ: 0x00
UART>
READ: 0x03
UART>
READ: 0x67
UART>
READ: 0x00
UART>
READ: 0x00
UART>
READ: 0x00
UART>
READ: 0x4A
UART>
READ: 0x01
UART>
READ: 0x00
UART>
READ: 0x00
UART>
READ: 0x00
UART>
READ: 0xCC
UART>
READ: 0x16
UART>
READ: 0x11
UART>
READ: 0x0B
UART>
READ: 0x00
UART>
READ: 0x00
UART>
READ: 0x00
UART>
READ: 0x4C
UART>
READ: 0x00
UART>
READ: 0x00
UART>
READ: 0x03
UART>
READ: 0x63
UART>
READ: 0x00
UART>
READ: 0x00
UART>
READ: 0x00
UART>
READ: 0x49
UART>
READ: 0x01
UART>
READ: 0x00
UART>
READ: 0x00
UART>
READ: 0x00
UART>
READ: 0xD2
UART>
READ: 0x16
UART>
READ: 0x11
UART>
READ: 0x0B
UART>
READ: 0x00
UART>
READ: 0x00
UART>
READ: 0x00
UART>
READ: 0x49
UART>
READ: 0x00
UART>
READ: 0x00
UART>
READ: 0x03
UART>
READ: 0x5E
UART>
READ: 0x00
UART>
READ: 0x00
UART>
READ: 0x00
UART>
READ: 0x46
UART>
READ: 0x01
UART>
READ: 0x00
UART>
READ: 0x00
UART>
READ: 0x00
UART>
READ: 0xDD
UART>
READ: 0x16
UART>
READ: 0x11
UART>
READ: 0x0B
UART>
READ: 0x00
UART>
READ: 0x00
UART>
READ: 0x00
UART>
READ: 0x48
UART>
READ: 0x00
UART>
READ: 0x00
UART>
READ: 0x03
UART>
READ: 0x5C
UART>
READ: 0x00
UART>
READ: 0x00
UART>
READ: 0x00
UART>
READ: 0x45
UART>
READ: 0x01
UART>
READ: 0x00
UART>
READ: 0x00
UART>
READ: 0x00
UART>
READ: 0xE1
UART>
READ: 0x16
UART>
READ: 0x11
UART>
READ: 0x0B
UART>
READ: 0x00
UART>
READ: 0x00
UART>
READ: 0x00
UART>
READ: 0x42
UART>
READ: 0x00
UART>
READ: 0x00
UART>
READ: 0x03
UART>
READ: 0x4C
UART>
READ: 0x00
UART>
READ: 0x00
UART>
READ: 0x00
UART>
READ: 0x3F
UART>
READ: 0x01
UART>
READ: 0x00
UART>
READ: 0x00
UART>
READ: 0x00
UART>
READ: 0xFD
UART>
READ: 0x16
UART>
READ: 0x11
UART>
READ: 0x0B
UART>
READ: 0x00
UART>
READ: 0x00
UART>
READ: 0x00
UART>
READ: 0x42
UART>
READ: 0x00
UART>
READ: 0x00
UART>
READ: 0x03
UART>
READ: 0x4B
UART>
READ: 0x00
UART>
READ: 0x00
UART>
READ: 0x00
UART>
READ: 0x3F
UART>
READ: 0x01
UART>
READ: 0x00
UART>
READ: 0x00
UART>
READ: 0x00
UART>
READ: 0xFE
UART>
READ: 0x16
UART>
READ: 0x11
UART>
READ: 0x0B
UART>
READ: 0x00
UART>
READ: 0x00
UART>
READ: 0x00
UART>
READ: 0x41
UART>
READ: 0x00
UART>
READ: 0x00
UART>
READ: 0x03
UART>
READ: 0x48
UART>
READ: 0x00
UART>
READ: 0x00
UART>
READ: 0x00
UART>
READ: 0x3E
UART>
READ: 0x01
UART>
READ: 0x00
UART>
READ: 0x00
UART>
READ: 0x00
UART>
READ: 0x03
UART>
READ: 0x16
UART>
READ: 0x11
UART>
READ: 0x0B
UART>
READ: 0x00
UART>
READ: 0x00
UART>
READ: 0x00
UART>
READ: 0x40
UART>
READ: 0x00
UART>
READ: 0x00
UART>
READ: 0x03
UART>
READ: 0x47
UART>
READ: 0x00
UART>
READ: 0x00
UART>
READ: 0x00
UART>
READ: 0x3D
UART>
READ: 0x01
UART>
READ: 0x00
UART>
READ: 0x00
UART>
READ: 0x00
UART>
READ: 0x06
UART>
READ: 0x16
UART>
READ: 0x11
UART>
READ: 0x0B
UART>
READ: 0x00
UART>
READ: 0x00
UART>
READ: 0x00
UART>
READ: 0x40
UART>
READ: 0x00
UART>
READ: 0x00
UART>
READ: 0x03
UART>
READ: 0x47
UART>
READ: 0x00
UART>
READ: 0x00
UART>
READ: 0x00
UART>
READ: 0x3D
UART>
READ: 0x01
UART>
READ: 0x00
UART>
READ: 0x00
UART>
READ: 0x00
UART>
READ: 0x06
UART>
READ: 0x16
UART>
READ: 0x11
UART>
READ: 0x0B
UART>
READ: 0x00
UART>
READ: 0x00
UART>
READ: 0x00
UART>
READ: 0x40
UART>
READ: 0x00
UART>
READ: 0x00
UART>
READ: 0x03
UART>
READ: 0x46
UART>
READ: 0x00
UART>
READ: 0x00
UART>
READ: 0x00
UART>
READ: 0x3D
UART>
READ: 0x01
UART>
READ: 0x00
UART>
READ: 0x00
UART>
READ: 0x00
UART>
READ: 0x07
UART>
READ: 0x16
UART>
READ: 0x11
UART>
READ: 0x0B
UART>
READ: 0x00
UART>
READ: 0x00
UART>
READ: 0x00
UART>
READ: 0x3E
UART>
READ: 0x00
UART>
READ: 0x00
UART>
READ: 0x03
UART>
READ: 0x43
UART>
READ: 0x00
UART>
READ: 0x00
UART>
READ: 0x00
UART>
READ: 0x3C
UART>
READ: 0x01
UART>
READ: 0x00
UART>
READ: 0x00
UART>
READ: 0x00
UART>
READ: 0x0D
UART>
READ: 0x16
UART>
READ: 0x11
UART>
READ: 0x0B
UART>
READ: 0x00
UART>
READ: 0x00
UART>
READ: 0x00
UART>
READ: 0x37
UART>
READ: 0x00
UART>
READ: 0x00
UART>
READ: 0x03
UART>
READ: 0x34
UART>
READ: 0x00
UART>
READ: 0x00
UART>
READ: 0x00
UART>
READ: 0x35
UART>
READ: 0x01
UART>
READ: 0x00
UART>
READ: 0x00
UART>
READ: 0x00
UART>
READ: 0x2A
UART>
READ: 0x16
UART>
READ: 0x11
UART>
READ: 0x0B
UART>
READ: 0x00
UART>
READ: 0x00
UART>
READ: 0x00
UART>
READ: 0x37
UART>
READ: 0x00
UART>
READ: 0x00
UART>
READ: 0x03
UART>
READ: 0x34
UART>
READ: 0x00
UART>
READ: 0x00
UART>
READ: 0x00
UART>
READ: 0x35
UART>
READ: 0x01
UART>
READ: 0x00
UART>
READ: 0x00
UART>
READ: 0x00
UART>
READ: 0x2A
UART>
READ: 0x16
UART>
READ: 0x11
UART>
READ: 0x0B
UART>
READ: 0x00
UART>
READ: 0x00
UART>
READ: 0x00
UART>
READ: 0x37
UART>
READ: 0x00
UART>
READ: 0x00
UART>
READ: 0x03
UART>
READ: 0x33
UART>
READ: 0x00
UART>
READ: 0x00
UART>
READ: 0x00
UART>
READ: 0x35
UART>
READ: 0x01
UART>
READ: 0x00
UART>
READ: 0x00
UART>
READ: 0x00
UART>
READ: 0x2B
UART>
READ: 0x16
UART>
READ: 0x11
UART>
READ: 0x0B
UART>
READ: 0x00
UART>
READ: 0x00
UART>
READ: 0x00
UART>
READ: 0x37
UART>
READ: 0x00
UART>
READ: 0x00
UART>
READ: 0x03
UART>
READ: 0x33
UART>
READ: 0x00
UART>
READ: 0x00
UART>
READ: 0x00
UART>
READ: 0x35
UART>
READ: 0x01
UART>
READ: 0x00
UART>
READ: 0x00
UART>
READ: 0x00
UART>
READ: 0x2B
UART>
READ: 0x16
UART>
READ: 0x11
UART>
READ: 0x0B
UART>
READ: 0x00
UART>
READ: 0x00
UART>
READ: 0x00
UART>
READ: 0x36
UART>
READ: 0x00
UART>
READ: 0x00
UART>
READ: 0x03
UART>
READ: 0x32
UART>
READ: 0x00
UART>
READ: 0x00
UART>
READ: 0x00
UART>
READ: 0x34
UART>
READ: 0x01
UART>
READ: 0x00
UART>
READ: 0x00
UART>
READ: 0x00
UART>
READ: 0x2E
UART>
READ: 0x16
UART>
READ: 0x11
UART>
READ: 0x0B
UART>
READ: 0x00
UART>
READ: 0x00
UART>
READ: 0x00
UART>
READ: 0x36
UART>
READ: 0x00
UART>
READ: 0x00
UART>
READ: 0x03
UART>
READ: 0x31
UART>
READ: 0x00
UART>
READ: 0x00
UART>
READ: 0x00
UART>
READ: 0x34
UART>
READ: 0x01
UART>
READ: 0x00
UART>
READ: 0x00
UART>
READ: 0x00
UART>
READ: 0x2F
UART>
READ: 0x16
UART>
READ: 0x11
UART>
READ: 0x0B
UART>
READ: 0x00
UART>
READ: 0x00
UART>
READ: 0x00
UART>
READ: 0x36
UART>
READ: 0x00
UART>
READ: 0x00
UART>
READ: 0x03
UART>
READ: 0x30
UART>
READ: 0x00
UART>
READ: 0x00
UART>
READ: 0x00
UART>
READ: 0x34
UART>
READ: 0x01
UART>
READ: 0x00
UART>
READ: 0x00
UART>
READ: 0x00
UART>
READ: 0x30
UART>
READ: 0x16
UART>
READ: 0x11
UART>
READ: 0x0B
UART>
READ: 0x00
UART>
READ: 0x00
UART>
READ: 0x00
UART>
READ: 0x37
UART>
READ: 0x00
UART>
READ: 0x00
UART>
READ: 0x03
UART>
READ: 0x33
UART>
READ: 0x00
UART>
READ: 0x00
UART>
READ: 0x00
UART>
READ: 0x35
UART>
READ: 0x01
UART>
READ: 0x00
UART>
READ: 0x00
UART>
READ: 0x00
UART>
READ: 0x2B
UART>
READ: 0x16
UART>
READ: 0x11
UART>
READ: 0x0B
UART>
READ: 0x00
UART>
READ: 0x00
UART>
READ: 0x00
UART>
READ: 0x37
UART>
READ: 0x00
UART>
READ: 0x00
UART>
READ: 0x03
UART>
READ: 0x34
UART>
READ: 0x00
UART>
READ: 0x00
UART>
READ: 0x00
UART>
READ: 0x35
UART>
READ: 0x01
UART>
READ: 0x00
UART>
READ: 0x00
UART>
READ: 0x00
UART>
READ: 0x2A
UART>
READ: 0x16
UART>
READ: 0x11
UART>
READ: 0x0B
UART>
READ: 0x00
UART>
READ: 0x00
UART>
READ: 0x00
UART>
READ: 0x38
UART>
READ: 0x00
UART>
READ: 0x00
UART>
READ: 0x03
UART>
READ: 0x35
UART>
READ: 0x00
UART>
READ: 0x00
UART>
READ: 0x00
UART>
READ: 0x36
UART>
READ: 0x01
UART>
READ: 0x00
UART>
READ: 0x00
UART>
READ: 0x00
UART>
READ: 0x27
UART>
READ: 0x16
UART>
READ: 0x11
UART>
READ: 0x0B
UART>
READ: 0x00
UART>
READ: 0x00
UART>
READ: 0x00
UART>
READ: 0x38
UART>
READ: 0x00
UART>
READ: 0x00
UART>
READ: 0x03
UART>
READ: 0x35
UART>
READ: 0x00
UART>
READ: 0x00
UART>
READ: 0x00
UART>
READ: 0x36
UART>
READ: 0x01
UART>
READ: 0x00
UART>
READ: 0x00
UART>
READ: 0x00
UART>
READ: 0x27
UART>
READ: 0x16
UART>
READ: 0x11
UART>
READ: 0x0B
UART>
READ: 0x00
UART>
READ: 0x00
UART>
READ: 0x00
UART>
READ: 0x38
UART>
READ: 0x00
UART>
READ: 0x00
UART>
READ: 0x03
UART>
READ: 0x36
UART>
READ: 0x00
UART>
READ: 0x00
UART>
READ: 0x00
UART>
READ: 0x36
UART>
READ: 0x01
UART>
READ: 0x00
UART>
READ: 0x00
UART>
READ: 0x00
UART>
READ: 0x26
UART>
READ: 0x16
UART>
READ: 0x11
UART>
READ: 0x0B
UART>
READ: 0x00
UART>
READ: 0x00
UART>
READ: 0x00
UART>
READ: 0x38
UART>
READ: 0x00
UART>
READ: 0x00
UART>
READ: 0x03
UART>
READ: 0x36
UART>
READ: 0x00
UART>
READ: 0x00
UART>
READ: 0x00
UART>
READ: 0x36
UART>
READ: 0x01
UART>
READ: 0x00
UART>
READ: 0x00
UART>
READ: 0x00
UART>
READ: 0x26
UART>
READ: 0x16
UART>
READ: 0x11
UART>
READ: 0x0B
UART>
READ: 0x00
UART>
READ: 0x00
UART>
READ: 0x00
UART>
READ: 0x38
UART>
READ: 0x00
UART>
READ: 0x00
UART>
READ: 0x03
UART>
READ: 0x37
UART>
READ: 0x00
UART>
READ: 0x00
UART>
READ: 0x00
UART>
READ: 0x36
UART>
READ: 0x01
UART>
READ: 0x00
UART>
READ: 0x00
UART>
READ: 0x00
UART>
READ: 0x25
UART>
READ: 0x16
UART>
READ: 0x11
UART>
READ: 0x0B
UART>
READ: 0x00
UART>
READ: 0x00
UART>
READ: 0x00
UART>
READ: 0x3C
UART>
READ: 0x00
UART>
READ: 0x00
UART>
READ: 0x03
UART>
READ: 0x3E
UART>
READ: 0x00
UART>
READ: 0x00
UART>
READ: 0x00
UART>
READ: 0x3A
UART>
READ: 0x01
UART>
READ: 0x00
UART>
READ: 0x00
UART>
READ: 0x00
UART>
READ: 0x16
UART>
READ: 0x16
UART>
READ: 0x11
UART>
READ: 0x0B
UART>
READ: 0x00
UART>
READ: 0x00
UART>
READ: 0x00
UART>
READ: 0x3C
UART>
READ: 0x00
UART>
READ: 0x00
UART>
READ: 0x03
UART>
READ: 0x3D
UART>
READ: 0x00
UART>
READ: 0x00
UART>
READ: 0x00
UART>
READ: 0x3A
UART>
READ: 0x01
UART>
READ: 0x00
UART>
READ: 0x00
UART>
READ: 0x00
UART>
READ: 0x17
UART>
READ: 0x16
UART>
READ: 0x11
UART>
READ: 0x0B
UART>
READ: 0x00
UART>
READ: 0x00
UART>
READ: 0x00
UART>
READ: 0x3B
UART>
READ: 0x00
UART>
READ: 0x00
UART>
READ: 0x03
UART>
READ: 0x3C
UART>
READ: 0x00
UART>
READ: 0x00
UART>
READ: 0x00
UART>
READ: 0x39
UART>
READ: 0x01
UART>
READ: 0x00
UART>
READ: 0x00
UART>
READ: 0x00
UART>
READ: 0x1A
UART>
READ: 0x16
UART>
READ: 0x11
UART>
READ: 0x0B
UART>
READ: 0x00
UART>
READ: 0x00
UART>
READ: 0x00
UART>
READ: 0x39
UART>
READ: 0x00
UART>
READ: 0x00
UART>
READ: 0x03
UART>
READ: 0x3A
UART>
READ: 0x00
UART>
READ: 0x00
UART>
READ: 0x00
UART>
READ: 0x37
UART>
READ: 0x01
UART>
READ: 0x00
UART>
READ: 0x00
UART>
READ: 0x00
UART>
READ: 0x20
UART>
READ: 0x16
UART>
READ: 0x11
UART>
READ: 0x0B
UART>
READ: 0x00
UART>
READ: 0x00
UART>
READ: 0x00
UART>
READ: 0x39
UART>
READ: 0x00
UART>
READ: 0x00
UART>
READ: 0x03
UART>
READ: 0x39
UART>
READ: 0x00
UART>
READ: 0x00
UART>
READ: 0x00
UART>
READ: 0x37
UART>
READ: 0x01
UART>
READ: 0x00
UART>
READ: 0x00
UART>
READ: 0x00
UART>
READ: 0x21
UART>
READ: 0x16
UART>
READ: 0x11
UART>
READ: 0x0B
UART>
READ: 0x00
UART>
READ: 0x00
UART>
READ: 0x00
UART>
READ: 0x39
UART>
READ: 0x00
UART>
READ: 0x00
UART>
READ: 0x03
UART>
READ: 0x39
UART>
READ: 0x00
UART>
READ: 0x00
UART>
READ: 0x00
UART>
READ: 0x37
UART>
READ: 0x01
UART>
READ: 0x00
UART>
READ: 0x00
UART>
READ: 0x00
UART>
READ: 0x21
UART>}
LIVE DISPLAY STOPPED
UART>[7mReally kill this window [y/n][27m[KUART>                                                                           UART>[?1l>[38;1H
[?1049l[23;0;0t[screen is terminating]
]0;luppy@pinebook:~/lupyuen.github.io[?2004h[luppy@pinebook lupyuen.github.io]$ 
[?2004l]0;luppy@pinebook:~/lupyuen.github.io[?2004h[luppy@pinebook lupyuen.github.io]$ exit
[?2004lexit

Script done on 2022-02-06 10:32:33+08:00 [COMMAND_EXIT_CODE="0"]
